<Qucs Dataset 0.0.20>
<indep frequency 101>
  +7.00000000000000000000e+07
  +7.06000000000000000000e+07
  +7.12000000000000000000e+07
  +7.18000000000000000000e+07
  +7.24000000000000000000e+07
  +7.30000000000000000000e+07
  +7.36000000000000000000e+07
  +7.42000000000000000000e+07
  +7.48000000000000000000e+07
  +7.54000000000000000000e+07
  +7.60000000000000000000e+07
  +7.66000000000000000000e+07
  +7.72000000000000000000e+07
  +7.78000000000000000000e+07
  +7.84000000000000000000e+07
  +7.90000000000000000000e+07
  +7.96000000000000000000e+07
  +8.02000000000000000000e+07
  +8.08000000000000000000e+07
  +8.14000000000000000000e+07
  +8.20000000000000000000e+07
  +8.26000000000000000000e+07
  +8.32000000000000000000e+07
  +8.38000000000000000000e+07
  +8.44000000000000000000e+07
  +8.50000000000000000000e+07
  +8.56000000000000000000e+07
  +8.62000000000000000000e+07
  +8.68000000000000000000e+07
  +8.74000000000000000000e+07
  +8.80000000000000000000e+07
  +8.86000000000000000000e+07
  +8.92000000000000000000e+07
  +8.98000000000000000000e+07
  +9.04000000000000000000e+07
  +9.10000000000000000000e+07
  +9.16000000000000000000e+07
  +9.22000000000000000000e+07
  +9.28000000000000000000e+07
  +9.34000000000000000000e+07
  +9.40000000000000000000e+07
  +9.46000000000000000000e+07
  +9.52000000000000000000e+07
  +9.58000000000000000000e+07
  +9.64000000000000000000e+07
  +9.70000000000000000000e+07
  +9.76000000000000000000e+07
  +9.82000000000000000000e+07
  +9.88000000000000000000e+07
  +9.94000000000000000000e+07
  +1.00000000000000000000e+08
  +1.00600000000000000000e+08
  +1.01200000000000000000e+08
  +1.01800000000000000000e+08
  +1.02400000000000000000e+08
  +1.03000000000000000000e+08
  +1.03600000000000000000e+08
  +1.04200000000000000000e+08
  +1.04800000000000000000e+08
  +1.05400000000000000000e+08
  +1.06000000000000000000e+08
  +1.06600000000000000000e+08
  +1.07200000000000000000e+08
  +1.07800000000000000000e+08
  +1.08400000000000000000e+08
  +1.09000000000000000000e+08
  +1.09600000000000000000e+08
  +1.10200000000000000000e+08
  +1.10800000000000000000e+08
  +1.11400000000000000000e+08
  +1.12000000000000000000e+08
  +1.12600000000000000000e+08
  +1.13200000000000000000e+08
  +1.13800000000000000000e+08
  +1.14400000000000000000e+08
  +1.15000000000000000000e+08
  +1.15600000000000000000e+08
  +1.16200000000000000000e+08
  +1.16800000000000000000e+08
  +1.17400000000000000000e+08
  +1.18000000000000000000e+08
  +1.18600000000000000000e+08
  +1.19200000000000000000e+08
  +1.19800000000000000000e+08
  +1.20400000000000000000e+08
  +1.21000000000000000000e+08
  +1.21600000000000000000e+08
  +1.22200000000000000000e+08
  +1.22800000000000000000e+08
  +1.23400000000000000000e+08
  +1.24000000000000000000e+08
  +1.24600000000000000000e+08
  +1.25200000000000000000e+08
  +1.25800000000000000000e+08
  +1.26400000000000000000e+08
  +1.27000000000000000000e+08
  +1.27600000000000000000e+08
  +1.28200000000000000000e+08
  +1.28800000000000000000e+08
  +1.29400000000000000000e+08
  +1.30000000000000000000e+08
</indep>
<dep Rn frequency>
  +8.55655485755976386031e+00
  +8.54460838438544811879e+00
  +8.53270964609738058471e+00
  +8.52086592064014780590e+00
  +8.50908454539056258170e+00
  +8.49737291669335270683e+00
  +8.48573848943059516614e+00
  +8.47418877662307501453e+00
  +8.46273134906207857853e+00
  +8.45145790627176474175e+00
  +8.44033534380450589651e+00
  +8.42932956061006244397e+00
  +8.41844829066508459903e+00
  +8.40769932327868829702e+00
  +8.39709050289031289083e+00
  +8.38662972888754509881e+00
  +8.37632495544293931289e+00
  +8.36611909638192052796e+00
  +8.35595908339947079924e+00
  +8.34598536813035885018e+00
  +8.33620632871122424490e+00
  +8.32663039446430275348e+00
  +8.31726604580012640611e+00
  +8.30812181413357286885e+00
  +8.29920628181239194987e+00
  +8.29052808205739921732e+00
  +8.28206285786580664876e+00
  +8.27385258080511931666e+00
  +8.26590605254248877998e+00
  +8.25823212552063523617e+00
  +8.25083970294670443479e+00
  +8.24373773878875049093e+00
  +8.23693523777937386399e+00
  +8.23044125542586257893e+00
  +8.22443761245668802928e+00
  +8.21884287202402674666e+00
  +8.21357894725266923786e+00
  +8.20865499932120812332e+00
  +8.20408024458980911220e+00
  +8.19986395465968875840e+00
  +8.19601545643625861715e+00
  +8.19254413219554322723e+00
  +8.18942652271813287257e+00
  +8.18663945566749617910e+00
  +8.18425843776433481480e+00
  +8.18229313591130669181e+00
  +8.18075327305816912826e+00
  +8.17964862827298233583e+00
  +8.17898903681485656136e+00
  +8.17878439020828018613e+00
  +8.17904463631868949847e+00
  +8.17961440205389500591e+00
  +8.18067546598447137285e+00
  +8.18223793391735831904e+00
  +8.18431196303758135002e+00
  +8.18690776198613079373e+00
  +8.19003559093802735447e+00
  +8.19370576168038233789e+00
  +8.19792863769050228484e+00
  +8.20275142459913375603e+00
  +8.20816448555620148397e+00
  +8.21415955344877168898e+00
  +8.22074714374192438981e+00
  +8.22793782373540238950e+00
  +8.23574221263339367738e+00
  +8.24417098161355710317e+00
  +8.25323485389549915681e+00
  +8.26300203688767531673e+00
  +8.27354081694024756644e+00
  +8.28474717568560770076e+00
  +8.29663198393571299505e+00
  +8.30920616442169013283e+00
  +8.32248069185829209005e+00
  +8.33646659300730163977e+00
  +8.35117494673995608423e+00
  +8.36661688409835058167e+00
  +8.38271875496415042051e+00
  +8.39958095483334687970e+00
  +8.41721486416384934159e+00
  +8.43563191573130488621e+00
  +8.45484359468423818385e+00
  +8.47486143859788576549e+00
  +8.49569703752716343104e+00
  +8.51736203405830316626e+00
  +8.53994212960224885478e+00
  +8.56340688898324842171e+00
  +8.58773004882166368645e+00
  +8.61292343691182793464e+00
  +8.63899893650591543803e+00
  +8.66596848637091632384e+00
  +8.69384408084480320156e+00
  +8.72263776989143302387e+00
  +8.75235641110991302583e+00
  +8.78300846355019260159e+00
  +8.81461744656801471365e+00
  +8.84719567595567468743e+00
  +8.88075552345238605767e+00
  +8.91530941679375921183e+00
  +8.95086983976035099886e+00
  +8.98744933222515740567e+00
  +9.02506049020022338425e+00
</dep>
<dep Fmin frequency>
  +1.27573223921802858527e+00
  +1.27577376946693044069e+00
  +1.27581471516340227979e+00
  +1.27585508387761215054e+00
  +1.27589488315384125272e+00
  +1.27593412050489396492e+00
  +1.27597280340692220690e+00
  +1.27601093929463882404e+00
  +1.27604853555689889966e+00
  +1.27608526613141082251e+00
  +1.27612130817082469747e+00
  +1.27615683637238586101e+00
  +1.27619185805302404191e+00
  +1.27622638046334757611e+00
  +1.27626041078510366056e+00
  +1.27629395612888596467e+00
  +1.27632702353207605483e+00
  +1.27635994494263571575e+00
  +1.27639302853496761081e+00
  +1.27642561889629480021e+00
  +1.27645772225018272472e+00
  +1.27648934475212705308e+00
  +1.27652049248840970819e+00
  +1.27655117147511520947e+00
  +1.27658138765728534914e+00
  +1.27661114690820354234e+00
  +1.27664025428310612398e+00
  +1.27666892127485298580e+00
  +1.27669715360457902698e+00
  +1.27672495691848797428e+00
  +1.27675233678771227197e+00
  +1.27677929870826578629e+00
  +1.27680584810107888849e+00
  +1.27683199031211014329e+00
  +1.27686452089838153867e+00
  +1.27690010472131465491e+00
  +1.27693536210023084188e+00
  +1.27697029739195189180e+00
  +1.27700491488809486640e+00
  +1.27703921881538118299e+00
  +1.27707321333599033153e+00
  +1.27710690254794934084e+00
  +1.27714020812513817660e+00
  +1.27717304076283988401e+00
  +1.27720556352632996777e+00
  +1.27723778012647426472e+00
  +1.27726969421405223137e+00
  +1.27730130938030717047e+00
  +1.27733262915751200062e+00
  +1.27736365701956078311e+00
  +1.27739439638258023280e+00
  +1.27741257613059611131e+00
  +1.27743044169573560787e+00
  +1.27744799725083191255e+00
  +1.27746524690161433746e+00
  +1.27748219468762114204e+00
  +1.27749884458310947188e+00
  +1.27751520049796840617e+00
  +1.27753126627863955456e+00
  +1.27754638884034021906e+00
  +1.27756088718913907165e+00
  +1.27757509079916831141e+00
  +1.27758900328240776467e+00
  +1.27760262819285097535e+00
  +1.27761596902740293125e+00
  +1.27762902922676979678e+00
  +1.27764181217634464893e+00
  +1.27765524348247661024e+00
  +1.27767025027274017113e+00
  +1.27768499186521600208e+00
  +1.27769947125079275096e+00
  +1.27771369137193957499e+00
  +1.27772765512351016426e+00
  +1.27774136535352522692e+00
  +1.27775482486395874915e+00
  +1.27776803641150715762e+00
  +1.27778137996256013764e+00
  +1.27779448496578229566e+00
  +1.27780735404947232148e+00
  +1.27781998979969313446e+00
  +1.27783239476100507481e+00
  +1.27784457143717977701e+00
  +1.27785652229191626361e+00
  +1.27786824974953527878e+00
  +1.27788374275896976506e+00
  +1.27790103765996265750e+00
  +1.27791814873252107532e+00
  +1.27793507802221339986e+00
  +1.27795182753939928766e+00
  +1.27796839925983984898e+00
  +1.27798479512530871460e+00
  +1.27800101704418245241e+00
  +1.27801719328927987362e+00
  +1.27803345121599187806e+00
  +1.27804953938299536986e+00
  +1.27806545955071104714e+00
  +1.27808121344937197783e+00
  +1.27809680277956072558e+00
  +1.27811222921273448527e+00
  +1.27812749439174999644e+00
  +1.27814259993137024907e+00
</dep>
<dep Sopt frequency>
  +2.23735234466670040998e-01-j8.22745844013326593780e-02
  +2.22788430132820014506e-01-j8.34847372706830070932e-02
  +2.21838773407831313378e-01-j8.47135300266304847039e-02
  +2.20886524775270515208e-01-j8.59611007748617012014e-02
  +2.19931948093641971287e-01-j8.72275847893774491926e-02
  +2.18975310587479932156e-01-j8.85131144402676733884e-02
  +2.18016882837337694356e-01-j8.98178191199140996126e-02
  +2.17056938768579316124e-01-j9.11418251676678614626e-02
  +2.16095755638872788484e-01-j9.24852557930148228005e-02
  +2.15138538291506004052e-01-j9.38502207172038499516e-02
  +2.14183203249038250915e-01-j9.52357506240435192080e-02
  +2.13227592432518875398e-01-j9.66409426412466188161e-02
  +2.12271993887717475014e-01-j9.80659031923896834515e-02
  +2.11316698839199346160e-01-j9.95107352146994694753e-02
  +2.10362001668212839078e-01-j1.00975538075246770719e-01
  +2.09408199888628798746e-01-j1.02460407485987128884e-01
  +2.08455594120857068408e-01-j1.03965435417693138898e-01
  +2.07500275875573680917e-01-j1.05497091853224533864e-01
  +2.06538517343019117911e-01-j1.07062039860428961924e-01
  +2.05579148574940029359e-01-j1.08647691720800590454e-01
  +2.04622491386315774609e-01-j1.10254119828365970690e-01
  +2.03668870467592938445e-01-j1.11881392170282339960e-01
  +2.02718613340376024867e-01-j1.13529572235313028217e-01
  +2.01772050310481870783e-01-j1.15198718921746656729e-01
  +2.00829514418281146471e-01-j1.16888886444853012936e-01
  +1.99891341386268961422e-01-j1.18600124243955676318e-01
  +1.98956200398740262747e-01-j1.20332077732589207142e-01
  +1.98026096033046966616e-01-j1.22085225553273640786e-01
  +1.97101372440655953078e-01-j1.23859602407340951835e-01
  +1.96182376223791532510e-01-j1.25655237834644911699e-01
  +1.95269456368090094101e-01-j1.27472156119780716255e-01
  +1.94362964172135527230e-01-j1.29310376198496085332e-01
  +1.93463253173822430364e-01-j1.31169911564401553417e-01
  +1.92570679073517769808e-01-j1.33050770176085408902e-01
  +1.91688878189378464345e-01-j1.34944883007598187552e-01
  +1.90816361383832427956e-01-j1.36856145233135190198e-01
  +1.89951804192978607189e-01-j1.38788560748321687655e-01
  +1.89095564666493048955e-01-j1.40742120033521267430e-01
  +1.88248002710048351060e-01-j1.42716807725912275817e-01
  +1.87409479992364930157e-01-j1.44712602529644768223e-01
  +1.86580359848898813535e-01-j1.46729477127097857059e-01
  +1.85761007182136061999e-01-j1.48767398091356001233e-01
  +1.84949870412572270340e-01-j1.50826566457992083947e-01
  +1.84145392729613832650e-01-j1.52907256894328102970e-01
  +1.83351777972477258949e-01-j1.55008976467731623972e-01
  +1.82569399189685899199e-01-j1.57131667301383753932e-01
  +1.81798630474980127403e-01-j1.59275264924281623191e-01
  +1.81039846845879731640e-01-j1.61439698192605646243e-01
  +1.80293424118824263669e-01-j1.63624889213219354422e-01
  +1.79559738780928984658e-01-j1.65830753269443409437e-01
  +1.78839167858362096952e-01-j1.68057198749236830215e-01
  +1.78134187856803821726e-01-j1.70317592534641737423e-01
  +1.77443412389222621162e-01-j1.72598358631099207949e-01
  +1.76767220394107554826e-01-j1.74899375842622800681e-01
  +1.76105990574979193175e-01-j1.77220515772031267376e-01
  +1.75460101250285938068e-01-j1.79561642768079315902e-01
  +1.74829930200313815591e-01-j1.81922613875953514961e-01
  +1.74215854511179935038e-01-j1.84303278791257629798e-01
  +1.73618250415982333656e-01-j1.86703479817625139781e-01
  +1.73040816179270362518e-01-j1.89121544629350879507e-01
  +1.72482223304774806572e-01-j1.91557966144128483110e-01
  +1.71941172658652108307e-01-j1.94013300989839904132e-01
  +1.71418033065230734913e-01-j1.96487362434697443447e-01
  +1.70913171674833386238e-01-j1.98979956259499046745e-01
  +1.70426953791361301960e-01-j2.01490880739790628740e-01
  +1.69959742697764371044e-01-j2.04019926632504677855e-01
  +1.69511899479521471745e-01-j2.06566877167163154283e-01
  +1.69086266083005337668e-01-j2.09132241401704610517e-01
  +1.68685703257720226445e-01-j2.11716413752884802246e-01
  +1.68305605899776611345e-01-j2.14317633882586511263e-01
  +1.67946320975287638477e-01-j2.16935654080180617687e-01
  +1.67608192317639320690e-01-j2.19570219219367174235e-01
  +1.67291560443877246334e-01-j2.22221066780196735424e-01
  +1.66996762370167556311e-01-j2.24887926876318727798e-01
  +1.66724131426487204299e-01-j2.27570522287517201798e-01
  +1.66473997070719276214e-01-j2.30268568497623615787e-01
  +1.66239219386148467938e-01-j2.32987518651903258160e-01
  +1.66027725204725667973e-01-j2.35721483654635854954e-01
  +1.65839834941036601279e-01-j2.38470154356522356931e-01
  +1.65675864321636306942e-01-j2.41233214419249719640e-01
  +1.65536124195773182155e-01-j2.44010340382628754252e-01
  +1.65420920346609434670e-01-j2.46801201737510633727e-01
  +1.65330553303152882894e-01-j2.49605461004530626568e-01
  +1.65265318153095780440e-01-j2.52422773818687828928e-01
  +1.65227920165017500009e-01-j2.55244790767697293798e-01
  +1.65217200341362613347e-01-j2.58075109680000913670e-01
  +1.65232180124744554295e-01-j2.60917362475947933742e-01
  +1.65273129627420162224e-01-j2.63771184934633085017e-01
  +1.65340312785543924745e-01-j2.66636206503176931282e-01
  +1.65433987183389447084e-01-j2.69512050411316705922e-01
  +1.65554403879780404063e-01-j2.72398333791699143180e-01
  +1.65701807236921322408e-01-j2.75294667805821402506e-01
  +1.65875513004295593866e-01-j2.78201747797368781345e-01
  +1.66074879861691948602e-01-j2.81120296917000911385e-01
  +1.66302000478904088432e-01-j2.84047744632515142271e-01
  +1.66557091924737332711e-01-j2.86983677889208033118e-01
  +1.66840363715363343422e-01-j2.89927678342207451045e-01
  +1.67152017660895768625e-01-j2.92879322516292950329e-01
  +1.67492247715830544497e-01-j2.95838181970918656649e-01
  +1.67861239833552416956e-01-j2.98803823470341900492e-01
  +1.68259171825101361275e-01-j3.01775809158739360960e-01
</dep>
<dep F frequency>
  +1.30159094069794578630e+00
  +1.30153163654547432415e+00
  +1.30147488424376667204e+00
  +1.30142083162687316467e+00
  +1.30136962770368280751e+00
  +1.30132142264764283368e+00
  +1.30127636778723942967e+00
  +1.30123461559720032810e+00
  +1.30119631969037685693e+00
  +1.30116247694655040590e+00
  +1.30113283171911020553e+00
  +1.30110712079537749197e+00
  +1.30108550108211096230e+00
  +1.30106813057150438873e+00
  +1.30105516833673684474e+00
  +1.30104677452797701243e+00
  +1.30104311036881492569e+00
  +1.30104443641937428389e+00
  +1.30105109597022217116e+00
  +1.30106309977047907012e+00
  +1.30108061587948031779e+00
  +1.30110381337854463801e+00
  +1.30113286236863534562e+00
  +1.30116793396832086671e+00
  +1.30120920031200704159e+00
  +1.30125683454842455689e+00
  +1.30131043439466376199e+00
  +1.30137076180534139169e+00
  +1.30143799332429654925e+00
  +1.30151230650582672155e+00
  +1.30159387991426744868e+00
  +1.30168289312374252376e+00
  +1.30177952671807184437e+00
  +1.30188396229082803401e+00
  +1.30200318061036268702e+00
  +1.30213392759139434673e+00
  +1.30227297969791466770e+00
  +1.30242052111798467529e+00
  +1.30257673713530719439e+00
  +1.30274181413037148936e+00
  +1.30291593958168361311e+00
  +1.30309930206706581224e+00
  +1.30329169341202710797e+00
  +1.30349291241920606232e+00
  +1.30370395044128239981e+00
  +1.30392500153385237915e+00
  +1.30415626086576108555e+00
  +1.30439792472052329408e+00
  +1.30465019049777253279e+00
  +1.30491325671475411063e+00
  +1.30518732300784812139e+00
  +1.30546202334635719211e+00
  +1.30574819516656992491e+00
  +1.30604604100676247036e+00
  +1.30635576442553302812e+00
  +1.30667757000340856166e+00
  +1.30701166334445773032e+00
  +1.30735825107790071264e+00
  +1.30771754085973235249e+00
  +1.30808933473148747417e+00
  +1.30847399413390275136e+00
  +1.30887192185254264132e+00
  +1.30928332857835894032e+00
  +1.30970842603148396321e+00
  +1.31014742696270536371e+00
  +1.31060054515492896421e+00
  +1.31106799542462915120e+00
  +1.31155154190336853404e+00
  +1.31205294303884101303e+00
  +1.31256931577762125940e+00
  +1.31310087771774064436e+00
  +1.31364784749112395446e+00
  +1.31421044476491610808e+00
  +1.31478889024277756370e+00
  +1.31538340566617106830e+00
  +1.31599421381562309286e+00
  +1.31662201973710679681e+00
  +1.31726666966280681059e+00
  +1.31792839122615124126e+00
  +1.31860741310405193971e+00
  +1.31930396501803004483e+00
  +1.32001827773530799881e+00
  +1.32075058306989356893e+00
  +1.32150111388362878628e+00
  +1.32227284992341309611e+00
  +1.32306457741720517873e+00
  +1.32387514409359230427e+00
  +1.32470478683554926391e+00
  +1.32555374363013278582e+00
  +1.32642225356967147221e+00
  +1.32731055685294796476e+00
  +1.32821889478634780346e+00
  +1.32914780698368195644e+00
  +1.33009786876100144504e+00
  +1.33106874827859389399e+00
  +1.33206069209031685574e+00
  +1.33307394786509059159e+00
  +1.33410876438792591614e+00
  +1.33516539156093161367e+00
  +1.33624408040430653344e+00
  +1.33734508305730570576e+00
</dep>
<dep S[2,2] frequency>
  -2.02664387826341302334e-01-j2.39792958557130453379e-01
  -2.06507625524837590270e-01-j2.34877794896432096072e-01
  -2.10290149496231870696e-01-j2.29942897056049422311e-01
  -2.14012530008989898533e-01-j2.24988373576301026180e-01
  -2.17675298489317686768e-01-j2.20014318028071115263e-01
  -2.21278947949887672131e-01-j2.15020810636411596750e-01
  -2.24823933431240297054e-01-j2.10007919861590064414e-01
  -2.28310672455219909605e-01-j2.04975703940242559575e-01
  -2.31739545489976050963e-01-j1.99924212389151895186e-01
  -2.35162681595475570040e-01-j1.94896572309858961969e-01
  -2.38555320478907650905e-01-j1.89870912702455540977e-01
  -2.41892030135796132218e-01-j1.84825642685554042410e-01
  -2.45173074392027123825e-01-j1.79760781696946203567e-01
  -2.48398682812285831467e-01-j1.74676346227098377994e-01
  -2.51569051211458560857e-01-j1.69572351115169134284e-01
  -2.54684342176591305140e-01-j1.64448810820678859024e-01
  -2.57744685599842648926e-01-j1.59305740672439549721e-01
  -2.60700949949598470567e-01-j1.54092706247845268042e-01
  -2.63501661828313915592e-01-j1.48760237719804816470e-01
  -2.66244120157212715849e-01-j1.43409812134577124842e-01
  -2.68928280113106321636e-01-j1.38041550687872743852e-01
  -2.71554068909999224424e-01-j1.32655585675742426766e-01
  -2.74121386614653350655e-01-j1.27252061656648096655e-01
  -2.76630106985324197844e-01-j1.21831136592012723163e-01
  -2.79080078334636050297e-01-j1.16392982965281888141e-01
  -2.81471124417548901331e-01-j1.10937788879388987695e-01
  -2.83870878359025469173e-01-j1.05484104520025351315e-01
  -2.86211064523262948001e-01-j1.00013034714974496930e-01
  -2.88491434170950911131e-01-j9.45248288059775676473e-02
  -2.90711717827117965829e-01-j8.90197559588771780703e-02
  -2.92871626317098066039e-01-j8.34981061547435954306e-02
